T32E4 9834:507.544   SEGGER J-Link V6.84a Log File
T32E4 9834:507.604   DLL Compiled: Sep  7 2020 17:26:08
T32E4 9834:507.610   Logging started @ 2021-02-20 08:30
T32E4 9834:507.614 - 2639.401ms
T32E4 9834:507.624 JLINK_SetWarnOutHandler(...)
T32E4 9834:507.629 - 0.007ms
T32E4 9834:507.635 JLINK_OpenEx(...)
T32E4 9834:511.944   Firmware: J-Link ARM-OB STM32 compiled Aug 22 2012 19:52:04
T32E4 9834:513.840   Hardware: V7.00
T32E4 9834:513.863   S/N: 20200909
T32E4 9834:513.870   OEM: SEGGER
T32E4 9834:513.876   Feature(s): RDI,FlashDL,FlashBP,JFlash,GDBFull
T32E4 9834:514.805   TELNET listener socket opened on port 19021
T32E4 9834:518.384   WEBSRV Starting webserver
T32E4 9834:518.454   WEBSRV Failed to put socket into listener state (port 19080)
T32E4 9834:518.543   WEBSRV Webserver running on local port 19081
T32E4 9834:518.552 - 10.919ms returns "O.K."
T32E4 9834:518.569 JLINK_GetEmuCaps()
T32E4 9834:518.574 - 0.007ms returns 0x88EA5833
T32E4 9834:518.586 JLINK_TIF_GetAvailable(...)
T32E4 9834:518.800 - 0.219ms
T32E4 9834:518.813 JLINK_SetErrorOutHandler(...)
T32E4 9834:518.820 - 0.010ms
T32E4 9834:519.200 JLINK_ExecCommand("ProjectFile = "C:\Users\ลหัวนโ\Desktop\git\JS135\SW\boot\examples\dfu\secure_bootloader\pca10100_s140_ble\arm5_no_packs\JLinkSettings.ini"", ...). 
T32E4 9834:520.443 - 1.250ms returns 0x00
T32E4 9834:523.387 JLINK_ExecCommand("Device = nRF52820_xxAA", ...). 
T32E4 9834:526.291   Device "NRF52820_XXAA" selected.
T32E4 9834:527.355 - 3.966ms returns 0x00
T32E4 9834:527.400 JLINK_GetHardwareVersion()
T32E4 9834:527.408 - 0.011ms returns 70000
T32E4 9834:527.418 JLINK_GetDLLVersion()
T32E4 9834:527.425 - 0.013ms returns 68401
T32E4 9834:527.438 JLINK_GetOEMString(...)
T32E4 9834:527.447 JLINK_GetFirmwareString(...)
T32E4 9834:527.454 - 0.010ms
T32E4 9834:538.892 JLINK_GetDLLVersion()
T32E4 9834:538.929 - 0.038ms returns 68401
T32E4 9834:538.940 JLINK_GetCompileDateTime()
T32E4 9834:538.945 - 0.006ms
T32E4 9834:541.680 JLINK_GetFirmwareString(...)
T32E4 9834:541.701 - 0.023ms
T32E4 9834:544.238 JLINK_GetHardwareVersion()
T32E4 9834:544.259 - 0.023ms returns 70000
T32E4 9834:547.136 JLINK_GetSN()
T32E4 9834:547.158 - 0.024ms returns 20200909
T32E4 9834:549.686 JLINK_GetOEMString(...)
T32E4 9834:555.573 JLINK_TIF_Select(JLINKARM_TIF_SWD)
T32E4 9834:556.677 - 1.115ms returns 0x00
T32E4 9834:556.699 JLINK_HasError()
T32E4 9834:556.709 JLINK_SetSpeed(5000)
T32E4 9834:556.961 - 0.260ms
T32E4 9834:556.978 JLINK_GetId()
T32E4 9834:560.150   InitTarget() start
T32E4 9834:560.177    J-Link Script File: Executing InitTarget()
T32E4 9834:567.449   InitTarget() end
T32E4 9835:157.026   Found SW-DP with ID 0x2BA01477
T32E4 9835:216.638   SWD speed too high. Reduced from 4000 kHz to 853 kHz for stability
T32E4 9835:220.321   Old FW that does not support reading DPIDR via DAP jobs
T32E4 9835:229.540   Unknown DP version. Assuming DPv0
T32E4 9835:232.492   Scanning AP map to find all available APs
T32E4 9835:239.254   AP[2]: Stopped AP scan as end of AP map has been reached
T32E4 9835:241.686   AP[0]: AHB-AP (IDR: 0x24770011)
T32E4 9835:243.879   AP[1]: JTAG-AP (IDR: 0x02880000)
T32E4 9835:246.420   Iterating through AP map to find AHB-AP to use
T32E4 9835:253.884   AP[0]: Core found
T32E4 9835:256.041   AP[0]: AHB-AP ROM base: 0xE00FF000
T32E4 9835:260.750   CPUID register: 0x410FC241. Implementer code: 0x41 (ARM)
T32E4 9835:263.290   Found Cortex-M4 r0p1, Little endian.
T32E4 9835:364.857   -- Max. mem block: 0x00002C18
T32E4 9835:364.910   CPU_ReadMem(4 bytes @ 0xE000EDF0)
T32E4 9835:366.423   CPU_WriteMem(4 bytes @ 0xE000EDF0)
T32E4 9835:367.757   CPU_ReadMem(4 bytes @ 0xE0002000)
T32E4 9835:375.089   FPUnit: 6 code (BP) slots and 2 literal slots
T32E4 9835:375.136   CPU_ReadMem(4 bytes @ 0xE000EDFC)
T32E4 9835:376.287   CPU_WriteMem(4 bytes @ 0xE000EDFC)
T32E4 9835:377.740   CPU_ReadMem(4 bytes @ 0xE0001000)
T32E4 9835:378.875   CPU_WriteMem(4 bytes @ 0xE0001000)
T32E4 9835:380.059   CPU_ReadMem(4 bytes @ 0xE000ED88)
T32E4 9835:381.221   CPU_WriteMem(4 bytes @ 0xE000ED88)
T32E4 9835:382.731   CPU_ReadMem(4 bytes @ 0xE000ED88)
T32E4 9835:384.038   CPU_WriteMem(4 bytes @ 0xE000ED88)
T32E4 9835:389.731   CoreSight components:
T32E4 9835:392.241   ROMTbl[0] @ E00FF000
T32E4 9835:392.261   CPU_ReadMem(64 bytes @ 0xE00FF000)
T32E4 9835:395.148   CPU_ReadMem(32 bytes @ 0xE000EFE0)
T32E4 9835:402.590   ROMTbl[0][0]: E000E000, CID: B105E00D, PID: 000BB000 SCS
T32E4 9835:402.627   CPU_ReadMem(32 bytes @ 0xE0001FE0)
T32E4 9835:407.786   ROMTbl[0][1]: E0001000, CID: B105E00D, PID: 003BB002 DWT
T32E4 9835:407.811   CPU_ReadMem(32 bytes @ 0xE0002FE0)
T32E4 9835:412.219   ROMTbl[0][2]: E0002000, CID: B105E00D, PID: 002BB003 FPB
T32E4 9835:412.732 - 855.764ms returns 0x2BA01477
T32E4 9835:412.753 JLINK_GetDLLVersion()
T32E4 9835:412.758 - 0.007ms returns 68401
T32E4 9835:412.770 JLINK_CORE_GetFound()
T32E4 9835:412.775 - 0.007ms returns 0xE0000FF
T32E4 9835:412.782 JLINK_GetDebugInfo(0x100 = JLINKARM_ROM_TABLE_ADDR_INDEX)
T32E4 9835:412.788   Value=0xE00FF000
T32E4 9835:412.795 - 0.014ms returns 0
T32E4 9835:416.037 JLINK_GetDebugInfo(0x100 = JLINKARM_ROM_TABLE_ADDR_INDEX)
T32E4 9835:416.060   Value=0xE00FF000
T32E4 9835:416.067 - 0.032ms returns 0
T32E4 9835:416.073 JLINK_GetDebugInfo(0x101 = JLINKARM_DEBUG_INFO_ETM_ADDR_INDEX)
T32E4 9835:416.077   Value=0x00000000
T32E4 9835:416.083 - 0.012ms returns 0
T32E4 9835:416.113 JLINK_ReadMemEx(0xE0041FF0, 0x10 Bytes, Flags = 0x02000004)
T32E4 9835:416.132   CPU_ReadMem(16 bytes @ 0xE0041FF0)
T32E4 9835:417.524   Data:  00 00 00 00 00 00 00 00 00 00 00 00 00 00 00 00
T32E4 9835:417.540 - 1.429ms returns 16 (0x10)
T32E4 9835:417.549 JLINK_GetDebugInfo(0x102 = JLINKARM_DEBUG_INFO_MTB_ADDR_INDEX)
T32E4 9835:417.554   Value=0x00000000
T32E4 9835:417.561 - 0.013ms returns 0
T32E4 9835:417.566 JLINK_GetDebugInfo(0x103 = JLINKARM_DEBUG_INFO_TPIU_ADDR_INDEX)
T32E4 9835:417.570   Value=0x00000000
T32E4 9835:417.577 - 0.012ms returns 0
T32E4 9835:417.582 JLINK_ReadMemEx(0xE0040FF0, 0x10 Bytes, Flags = 0x02000004)
T32E4 9835:417.592   CPU_ReadMem(16 bytes @ 0xE0040FF0)
T32E4 9835:419.023   Data:  00 00 00 00 00 00 00 00 00 00 00 00 00 00 00 00
T32E4 9835:419.046 - 1.466ms returns 16 (0x10)
T32E4 9835:419.056 JLINK_GetDebugInfo(0x104 = JLINKARM_DEBUG_INFO_ITM_ADDR_INDEX)
T32E4 9835:419.061   Value=0xE0000000
T32E4 9835:419.067 - 0.013ms returns 0
T32E4 9835:419.072 JLINK_GetDebugInfo(0x105 = JLINKARM_DEBUG_INFO_DWT_ADDR_INDEX)
T32E4 9835:419.077   Value=0xE0001000
T32E4 9835:419.083 - 0.012ms returns 0
T32E4 9835:419.088 JLINK_GetDebugInfo(0x106 = JLINKARM_DEBUG_INFO_FPB_ADDR_INDEX)
T32E4 9835:419.093   Value=0xE0002000
T32E4 9835:419.099 - 0.012ms returns 0
T32E4 9835:419.104 JLINK_GetDebugInfo(0x107 = JLINKARM_DEBUG_INFO_NVIC_ADDR_INDEX)
T32E4 9835:419.108   Value=0xE000E000
T32E4 9835:419.114 - 0.012ms returns 0
T32E4 9835:419.120 JLINK_GetDebugInfo(0x10C = JLINKARM_DEBUG_INFO_DBG_ADDR_INDEX)
T32E4 9835:419.124   Value=0xE000EDF0
T32E4 9835:419.130 - 0.012ms returns 0
T32E4 9835:419.135 JLINK_GetDebugInfo(0x01 = Unknown)
T32E4 9835:419.139   Value=0x00000001
T32E4 9835:419.146 - 0.012ms returns 0
T32E4 9835:419.155 JLINK_ReadMemU32(0xE000ED00, 0x1 Items)
T32E4 9835:419.167   CPU_ReadMem(4 bytes @ 0xE000ED00)
T32E4 9835:420.720   Data:  41 C2 0F 41
T32E4 9835:420.743   Debug reg: CPUID
T32E4 9835:420.749 - 1.596ms returns 1 (0x1)
T32E4 9835:420.760 JLINK_GetDebugInfo(0x10F = JLINKARM_DEBUG_INFO_HAS_CORTEX_M_SECURITY_EXT_INDEX)
T32E4 9835:420.765   Value=0x00000000
T32E4 9835:420.771 - 0.013ms returns 0
T32E4 9835:420.778 JLINK_HasError()
T32E4 9835:420.789 JLINK_SetResetType(JLINKARM_CM3_RESET_TYPE_NORMAL)
T32E4 9835:420.794 - 0.009ms returns JLINKARM_CM3_RESET_TYPE_NORMAL
T32E4 9835:420.802 JLINK_Reset()
T32E4 9835:420.814   CPU is running
T32E4 9835:420.855   CPU_WriteMem(4 bytes @ 0xE000EDF0)
T32E4 9835:422.091   CPU is running
T32E4 9835:422.117   CPU_WriteMem(4 bytes @ 0xE000EDFC)
T32E4 9835:426.499   Reset: Halt core after reset via DEMCR.VC_CORERESET.
T32E4 9835:430.158   Reset: Reset device via AIRCR.SYSRESETREQ.
T32E4 9835:430.192   CPU is running
T32E4 9835:430.202   CPU_WriteMem(4 bytes @ 0xE000ED0C)
T32E4 9835:484.621   CPU_ReadMem(4 bytes @ 0xE000EDF0)
T32E4 9835:485.790   CPU_ReadMem(4 bytes @ 0xE000EDF0)
T32E4 9835:487.009   CPU is running
T32E4 9835:487.046   CPU_WriteMem(4 bytes @ 0xE000EDF0)
T32E4 9835:488.242   CPU is running
T32E4 9835:488.284   CPU_WriteMem(4 bytes @ 0xE000EDFC)
T32E4 9835:494.691   CPU_ReadMem(4 bytes @ 0xE000EDF0)
T32E4 9835:505.110   CPU_WriteMem(4 bytes @ 0xE0002000)
T32E4 9835:506.627   CPU_ReadMem(4 bytes @ 0xE000EDFC)
T32E4 9835:507.809   CPU_ReadMem(4 bytes @ 0xE0001000)
T32E4 9835:508.985 - 88.214ms
T32E4 9835:509.065 JLINK_Halt()
T32E4 9835:509.078 - 0.020ms returns 0x00
T32E4 9835:509.097 JLINK_ReadMemU32(0xE000EDF0, 0x1 Items)
T32E4 9835:509.124   CPU_ReadMem(4 bytes @ 0xE000EDF0)
T32E4 9835:510.272   Data:  03 00 03 00
T32E4 9835:510.324   Debug reg: DHCSR
T32E4 9835:510.342 - 1.251ms returns 1 (0x1)
T32E4 9835:510.379 JLINK_WriteU32_64(0xE000EDF0, 0xA05F0003)
T32E4 9835:510.394   Debug reg: DHCSR
T32E4 9835:510.432   CPU_WriteMem(4 bytes @ 0xE000EDF0)
T32E4 9835:511.603 - 1.256ms returns 0 (0x00000000)
T32E4 9835:511.654 JLINK_WriteU32_64(0xE000EDFC, 0x01000000)
T32E4 9835:511.669   Debug reg: DEMCR
T32E4 9835:511.700   CPU_WriteMem(4 bytes @ 0xE000EDFC)
T32E4 9835:512.852 - 2.318ms returns 0 (0x00000000)
T32E4 9835:531.001 JLINK_GetHWStatus(...)
T32E4 9835:531.247 - 0.252ms returns 0
T32E4 9835:538.703 JLINK_GetNumBPUnits(Type = 0xFFFFFF00)
T32E4 9835:538.747 - 0.046ms returns 0x06
T32E4 9835:538.754 JLINK_GetNumBPUnits(Type = 0xF0)
T32E4 9835:538.759 - 0.007ms returns 0x2000
T32E4 9835:538.765 JLINK_GetNumWPUnits()
T32E4 9835:538.770 - 0.007ms returns 4
T32E4 9835:546.035 JLINK_GetSpeed()
T32E4 9835:546.064 - 0.031ms returns 843
T32E4 9835:555.255 JLINK_ReadMemU32(0xE000E004, 0x1 Items)
T32E4 9835:555.342   CPU_ReadMem(4 bytes @ 0xE000E004)
T32E4 9835:556.556   Data:  01 00 00 00
T32E4 9835:556.613 - 1.361ms returns 1 (0x1)
T32E4 9835:556.625 JLINK_ReadMemU32(0xE000E004, 0x1 Items)
T32E4 9835:556.639   CPU_ReadMem(4 bytes @ 0xE000E004)
T32E4 9835:557.798   Data:  01 00 00 00
T32E4 9835:557.814 - 1.191ms returns 1 (0x1)
T32E4 9835:557.829 JLINK_WriteMemEx(0xE0001000, 0x0000001C Bytes, Flags = 0x02000004)
T32E4 9835:557.834   Data:  01 00 00 00 00 00 00 00 00 00 00 00 00 00 00 00 ...
T32E4 9835:558.233   CPU_WriteMem(28 bytes @ 0xE0001000)
T32E4 9835:560.314 - 2.516ms returns 0x1C
T32E4 9835:560.369 JLINK_Halt()
T32E4 9835:560.389 - 0.032ms returns 0x00
T32E4 9835:560.422 JLINK_IsHalted()
T32E4 9835:560.447 - 0.031ms returns TRUE
T32E4 9835:562.789 JLINK_WriteMem(0x20000000, 0x5B8 Bytes, ...)
T32E4 9835:562.803   Data:  00 BE 0A E0 0D 78 2D 06 68 40 08 24 40 00 00 D3 ...
T32E4 9835:563.233   CPU_WriteMem(1464 bytes @ 0x20000000)
T32E4 9835:614.363 - 51.608ms returns 0x5B8
T32E4 9835:614.586 JLINK_HasError()
T32E4 9835:614.630 JLINK_WriteReg(R0, 0x00000000)
T32E4 9835:614.651 - 0.027ms returns 0
T32E4 9835:614.667 JLINK_WriteReg(R1, 0x03D09000)
T32E4 9835:614.680 - 0.019ms returns 0
T32E4 9835:614.703 JLINK_WriteReg(R2, 0x00000001)
T32E4 9835:614.716 - 0.019ms returns 0
T32E4 9835:614.730 JLINK_WriteReg(R3, 0x00000000)
T32E4 9835:614.743 - 0.018ms returns 0
T32E4 9835:614.757 JLINK_WriteReg(R4, 0x00000000)
T32E4 9835:614.769 - 0.018ms returns 0
T32E4 9835:614.784 JLINK_WriteReg(R5, 0x00000000)
T32E4 9835:614.797 - 0.018ms returns 0
T32E4 9835:614.811 JLINK_WriteReg(R6, 0x00000000)
T32E4 9835:614.822 - 0.017ms returns 0
T32E4 9835:614.837 JLINK_WriteReg(R7, 0x00000000)
T32E4 9835:614.850 - 0.018ms returns 0
T32E4 9835:614.864 JLINK_WriteReg(R8, 0x00000000)
T32E4 9835:614.876 - 0.018ms returns 0
T32E4 9835:614.890 JLINK_WriteReg(R9, 0x200005B4)
T32E4 9835:614.902 - 0.017ms returns 0
T32E4 9835:614.916 JLINK_WriteReg(R10, 0x00000000)
T32E4 9835:614.929 - 0.018ms returns 0
T32E4 9835:614.943 JLINK_WriteReg(R11, 0x00000000)
T32E4 9835:614.955 - 0.018ms returns 0
T32E4 9835:614.975 JLINK_WriteReg(R12, 0x00000000)
T32E4 9835:614.991 - 0.022ms returns 0
T32E4 9835:615.005 JLINK_WriteReg(R13 (SP), 0x20002000)
T32E4 9835:615.020 - 0.020ms returns 0
T32E4 9835:615.034 JLINK_WriteReg(R14, 0x20000001)
T32E4 9835:615.046 - 0.018ms returns 0
T32E4 9835:615.060 JLINK_WriteReg(R15 (PC), 0x20000020)
T32E4 9835:615.073 - 0.018ms returns 0
T32E4 9835:615.087 JLINK_WriteReg(XPSR, 0x01000000)
T32E4 9835:615.100 - 0.018ms returns 0
T32E4 9835:615.114 JLINK_WriteReg(MSP, 0x20002000)
T32E4 9835:615.127 - 0.018ms returns 0
T32E4 9835:615.141 JLINK_WriteReg(PSP, 0x20002000)
T32E4 9835:615.153 - 0.018ms returns 0
T32E4 9835:615.168 JLINK_WriteReg(CFBP, 0x00000000)
T32E4 9835:615.180 - 0.018ms returns 0
T32E4 9835:615.201 JLINK_SetBPEx(Addr = 0x20000000, Type = 0xFFFFFFF2)
T32E4 9835:615.254   CPU_ReadMem(2 bytes @ 0x20000000)
T32E4 9835:616.443 - 1.275ms returns 0x00000001
T32E4 9835:616.504 JLINK_Go()
T32E4 9835:616.529   CPU_WriteMem(2 bytes @ 0x20000000)
T32E4 9835:617.793   CPU_ReadMem(4 bytes @ 0xE0001000)
T32E4 9835:619.036   CPU_WriteMem(4 bytes @ 0xE0002008)
T32E4 9835:619.073   CPU_WriteMem(4 bytes @ 0xE000200C)
T32E4 9835:619.092   CPU_WriteMem(4 bytes @ 0xE0002010)
T32E4 9835:619.109   CPU_WriteMem(4 bytes @ 0xE0002014)
T32E4 9835:619.127   CPU_WriteMem(4 bytes @ 0xE0002018)
T32E4 9835:619.149   CPU_WriteMem(4 bytes @ 0xE000201C)
T32E4 9835:624.886   CPU_WriteMem(4 bytes @ 0xE0001004)
T32E4 9835:634.378 - 17.908ms
T32E4 9835:634.442 JLINK_IsHalted()
T32E4 9835:643.551   CPU_ReadMem(2 bytes @ 0x20000000)
T32E4 9835:644.949 - 10.540ms returns TRUE
T32E4 9835:645.174 JLINK_ReadReg(R15 (PC))
T32E4 9835:645.221 - 0.053ms returns 0x20000000
T32E4 9835:645.246 JLINK_ClrBPEx(BPHandle = 0x00000001)
T32E4 9835:645.269 - 0.030ms returns 0x00
T32E4 9835:645.287 JLINK_ReadReg(R0)
T32E4 9835:645.301 - 0.020ms returns 0x00000000
T32E4 9835:646.215 JLINK_HasError()
T32E4 9835:646.256 JLINK_WriteReg(R0, 0x00038000)
T32E4 9835:646.273 - 0.023ms returns 0
T32E4 9835:646.289 JLINK_WriteReg(R1, 0x00001000)
T32E4 9835:646.301 - 0.018ms returns 0
T32E4 9835:646.316 JLINK_WriteReg(R2, 0x000000FF)
T32E4 9835:646.329 - 0.019ms returns 0
T32E4 9835:646.344 JLINK_WriteReg(R3, 0x00000000)
T32E4 9835:646.357 - 0.019ms returns 0
T32E4 9835:646.371 JLINK_WriteReg(R4, 0x00000000)
T32E4 9835:646.383 - 0.018ms returns 0
T32E4 9835:646.398 JLINK_WriteReg(R5, 0x00000000)
T32E4 9835:646.410 - 0.018ms returns 0
T32E4 9835:646.424 JLINK_WriteReg(R6, 0x00000000)
T32E4 9835:646.436 - 0.018ms returns 0
T32E4 9835:646.451 JLINK_WriteReg(R7, 0x00000000)
T32E4 9835:646.463 - 0.018ms returns 0
T32E4 9835:646.477 JLINK_WriteReg(R8, 0x00000000)
T32E4 9835:646.489 - 0.017ms returns 0
T32E4 9835:646.504 JLINK_WriteReg(R9, 0x200005B4)
T32E4 9835:646.516 - 0.017ms returns 0
T32E4 9835:646.530 JLINK_WriteReg(R10, 0x00000000)
T32E4 9835:646.542 - 0.018ms returns 0
T32E4 9835:646.556 JLINK_WriteReg(R11, 0x00000000)
T32E4 9835:646.569 - 0.018ms returns 0
T32E4 9835:646.582 JLINK_WriteReg(R12, 0x00000000)
T32E4 9835:646.594 - 0.018ms returns 0
T32E4 9835:646.609 JLINK_WriteReg(R13 (SP), 0x20002000)
T32E4 9835:646.622 - 0.019ms returns 0
T32E4 9835:646.636 JLINK_WriteReg(R14, 0x20000001)
T32E4 9835:646.649 - 0.018ms returns 0
T32E4 9835:646.663 JLINK_WriteReg(R15 (PC), 0x20000288)
T32E4 9835:646.676 - 0.018ms returns 0
T32E4 9835:646.690 JLINK_WriteReg(XPSR, 0x01000000)
T32E4 9835:646.703 - 0.018ms returns 0
T32E4 9835:646.717 JLINK_WriteReg(MSP, 0x20002000)
T32E4 9835:646.730 - 0.018ms returns 0
T32E4 9835:646.744 JLINK_WriteReg(PSP, 0x20002000)
T32E4 9835:646.756 - 0.018ms returns 0
T32E4 9835:646.771 JLINK_WriteReg(CFBP, 0x00000000)
T32E4 9835:646.783 - 0.018ms returns 0
T32E4 9835:646.797 JLINK_SetBPEx(Addr = 0x20000000, Type = 0xFFFFFFF2)
T32E4 9835:646.812 - 0.020ms returns 0x00000002
T32E4 9835:646.827 JLINK_Go()
T32E4 9835:646.857   CPU_ReadMem(4 bytes @ 0xE0001000)
T32E4 9835:656.562 - 9.792ms
T32E4 9835:656.663 JLINK_IsHalted()
T32E4 9835:665.603   CPU_ReadMem(2 bytes @ 0x20000000)
T32E4 9835:666.902 - 10.280ms returns TRUE
T32E4 9835:666.967 JLINK_ReadReg(R15 (PC))
T32E4 9835:666.992 - 0.030ms returns 0x20000000
T32E4 9835:667.008 JLINK_ClrBPEx(BPHandle = 0x00000002)
T32E4 9835:667.022 - 0.019ms returns 0x00
T32E4 9835:667.037 JLINK_ReadReg(R0)
T32E4 9835:667.049 - 0.018ms returns 0x00000000
T32E4 9835:667.939 JLINK_HasError()
T32E4 9835:667.966 JLINK_WriteReg(R0, 0x00039000)
T32E4 9835:667.982 - 0.022ms returns 0
T32E4 9835:667.997 JLINK_WriteReg(R1, 0x00001000)
T32E4 9835:668.009 - 0.021ms returns 0
T32E4 9835:668.027 JLINK_WriteReg(R2, 0x000000FF)
T32E4 9835:668.040 - 0.019ms returns 0
T32E4 9835:668.054 JLINK_WriteReg(R3, 0x00000000)
T32E4 9835:668.066 - 0.018ms returns 0
T32E4 9835:668.081 JLINK_WriteReg(R4, 0x00000000)
T32E4 9835:668.093 - 0.017ms returns 0
T32E4 9835:668.107 JLINK_WriteReg(R5, 0x00000000)
T32E4 9835:668.120 - 0.018ms returns 0
T32E4 9835:668.134 JLINK_WriteReg(R6, 0x00000000)
T32E4 9835:668.147 - 0.018ms returns 0
T32E4 9835:668.161 JLINK_WriteReg(R7, 0x00000000)
T32E4 9835:668.173 - 0.018ms returns 0
T32E4 9835:668.188 JLINK_WriteReg(R8, 0x00000000)
T32E4 9835:668.200 - 0.018ms returns 0
T32E4 9835:668.214 JLINK_WriteReg(R9, 0x200005B4)
T32E4 9835:668.227 - 0.018ms returns 0
T32E4 9835:668.241 JLINK_WriteReg(R10, 0x00000000)
T32E4 9835:668.254 - 0.018ms returns 0
T32E4 9835:668.268 JLINK_WriteReg(R11, 0x00000000)
T32E4 9835:668.288 - 0.026ms returns 0
T32E4 9835:668.303 JLINK_WriteReg(R12, 0x00000000)
T32E4 9835:668.315 - 0.017ms returns 0
T32E4 9835:668.329 JLINK_WriteReg(R13 (SP), 0x20002000)
T32E4 9835:668.342 - 0.019ms returns 0
T32E4 9835:668.357 JLINK_WriteReg(R14, 0x20000001)
T32E4 9835:668.369 - 0.018ms returns 0
T32E4 9835:668.383 JLINK_WriteReg(R15 (PC), 0x20000288)
T32E4 9835:668.396 - 0.019ms returns 0
T32E4 9835:668.410 JLINK_WriteReg(XPSR, 0x01000000)
T32E4 9835:668.422 - 0.017ms returns 0
T32E4 9835:668.436 JLINK_WriteReg(MSP, 0x20002000)
T32E4 9835:668.449 - 0.018ms returns 0
T32E4 9835:668.462 JLINK_WriteReg(PSP, 0x20002000)
T32E4 9835:668.475 - 0.018ms returns 0
T32E4 9835:668.489 JLINK_WriteReg(CFBP, 0x00000000)
T32E4 9835:668.502 - 0.018ms returns 0
T32E4 9835:668.516 JLINK_SetBPEx(Addr = 0x20000000, Type = 0xFFFFFFF2)
T32E4 9835:668.531 - 0.020ms returns 0x00000003
T32E4 9835:668.546 JLINK_Go()
T32E4 9835:668.575   CPU_ReadMem(4 bytes @ 0xE0001000)
T32E4 9835:678.414 - 9.902ms
T32E4 9835:678.474 JLINK_IsHalted()
T32E4 9835:687.463   CPU_ReadMem(2 bytes @ 0x20000000)
T32E4 9835:688.733 - 10.278ms returns TRUE
T32E4 9835:688.770 JLINK_ReadReg(R15 (PC))
T32E4 9835:688.785 - 0.020ms returns 0x20000000
T32E4 9835:688.798 JLINK_ClrBPEx(BPHandle = 0x00000003)
T32E4 9835:688.808 - 0.014ms returns 0x00
T32E4 9835:688.820 JLINK_ReadReg(R0)
T32E4 9835:688.830 - 0.015ms returns 0x00000000
T32E4 9835:689.832 JLINK_HasError()
T32E4 9835:689.874 JLINK_WriteReg(R0, 0x0003A000)
T32E4 9835:689.891 - 0.023ms returns 0
T32E4 9835:689.906 JLINK_WriteReg(R1, 0x00001000)
T32E4 9835:689.919 - 0.019ms returns 0
T32E4 9835:689.933 JLINK_WriteReg(R2, 0x000000FF)
T32E4 9835:689.946 - 0.019ms returns 0
T32E4 9835:689.965 JLINK_WriteReg(R3, 0x00000000)
T32E4 9835:689.995 - 0.035ms returns 0
T32E4 9835:690.009 JLINK_WriteReg(R4, 0x00000000)
T32E4 9835:690.021 - 0.018ms returns 0
T32E4 9835:690.036 JLINK_WriteReg(R5, 0x00000000)
T32E4 9835:690.048 - 0.018ms returns 0
T32E4 9835:690.062 JLINK_WriteReg(R6, 0x00000000)
T32E4 9835:690.074 - 0.018ms returns 0
T32E4 9835:690.089 JLINK_WriteReg(R7, 0x00000000)
T32E4 9835:690.104 - 0.020ms returns 0
T32E4 9835:690.117 JLINK_WriteReg(R8, 0x00000000)
T32E4 9835:690.138 - 0.026ms returns 0
T32E4 9835:690.152 JLINK_WriteReg(R9, 0x200005B4)
T32E4 9835:690.164 - 0.018ms returns 0
T32E4 9835:690.179 JLINK_WriteReg(R10, 0x00000000)
T32E4 9835:690.191 - 0.018ms returns 0
T32E4 9835:690.205 JLINK_WriteReg(R11, 0x00000000)
T32E4 9835:690.218 - 0.018ms returns 0
T32E4 9835:690.232 JLINK_WriteReg(R12, 0x00000000)
T32E4 9835:690.245 - 0.025ms returns 0
T32E4 9835:690.269 JLINK_WriteReg(R13 (SP), 0x20002000)
T32E4 9835:690.284 - 0.020ms returns 0
T32E4 9835:690.298 JLINK_WriteReg(R14, 0x20000001)
T32E4 9835:690.310 - 0.018ms returns 0
T32E4 9835:690.325 JLINK_WriteReg(R15 (PC), 0x20000288)
T32E4 9835:690.338 - 0.018ms returns 0
T32E4 9835:690.352 JLINK_WriteReg(XPSR, 0x01000000)
T32E4 9835:690.364 - 0.018ms returns 0
T32E4 9835:690.379 JLINK_WriteReg(MSP, 0x20002000)
T32E4 9835:690.391 - 0.018ms returns 0
T32E4 9835:690.406 JLINK_WriteReg(PSP, 0x20002000)
T32E4 9835:690.418 - 0.018ms returns 0
T32E4 9835:690.433 JLINK_WriteReg(CFBP, 0x00000000)
T32E4 9835:690.446 - 0.018ms returns 0
T32E4 9835:690.460 JLINK_SetBPEx(Addr = 0x20000000, Type = 0xFFFFFFF2)
T32E4 9835:690.475 - 0.021ms returns 0x00000004
T32E4 9835:690.490 JLINK_Go()
T32E4 9835:690.521   CPU_ReadMem(4 bytes @ 0xE0001000)
T32E4 9835:700.344 - 9.889ms
T32E4 9835:700.400 JLINK_IsHalted()
T32E4 9835:709.824   CPU_ReadMem(2 bytes @ 0x20000000)
T32E4 9835:711.120 - 10.755ms returns TRUE
T32E4 9835:711.176 JLINK_ReadReg(R15 (PC))
T32E4 9835:711.196 - 0.025ms returns 0x20000000
T32E4 9835:711.212 JLINK_ClrBPEx(BPHandle = 0x00000004)
T32E4 9835:711.226 - 0.020ms returns 0x00
T32E4 9835:711.241 JLINK_ReadReg(R0)
T32E4 9835:711.254 - 0.018ms returns 0x00000000
T32E4 9835:712.234 JLINK_HasError()
T32E4 9835:712.269 JLINK_WriteReg(R0, 0x0003B000)
T32E4 9835:712.286 - 0.023ms returns 0
T32E4 9835:712.301 JLINK_WriteReg(R1, 0x00001000)
T32E4 9835:712.313 - 0.017ms returns 0
T32E4 9835:712.327 JLINK_WriteReg(R2, 0x000000FF)
T32E4 9835:712.340 - 0.018ms returns 0
T32E4 9835:712.354 JLINK_WriteReg(R3, 0x00000000)
T32E4 9835:712.366 - 0.017ms returns 0
T32E4 9835:712.380 JLINK_WriteReg(R4, 0x00000000)
T32E4 9835:712.392 - 0.017ms returns 0
T32E4 9835:712.406 JLINK_WriteReg(R5, 0x00000000)
T32E4 9835:712.419 - 0.018ms returns 0
T32E4 9835:712.432 JLINK_WriteReg(R6, 0x00000000)
T32E4 9835:712.445 - 0.018ms returns 0
T32E4 9835:712.459 JLINK_WriteReg(R7, 0x00000000)
T32E4 9835:712.471 - 0.018ms returns 0
T32E4 9835:712.485 JLINK_WriteReg(R8, 0x00000000)
T32E4 9835:712.497 - 0.018ms returns 0
T32E4 9835:712.511 JLINK_WriteReg(R9, 0x200005B4)
T32E4 9835:712.532 - 0.025ms returns 0
T32E4 9835:712.546 JLINK_WriteReg(R10, 0x00000000)
T32E4 9835:712.558 - 0.018ms returns 0
T32E4 9835:712.572 JLINK_WriteReg(R11, 0x00000000)
T32E4 9835:712.585 - 0.018ms returns 0
T32E4 9835:712.599 JLINK_WriteReg(R12, 0x00000000)
T32E4 9835:712.611 - 0.017ms returns 0
T32E4 9835:712.624 JLINK_WriteReg(R13 (SP), 0x20002000)
T32E4 9835:712.639 - 0.019ms returns 0
T32E4 9835:712.653 JLINK_WriteReg(R14, 0x20000001)
T32E4 9835:712.665 - 0.019ms returns 0
T32E4 9835:712.680 JLINK_WriteReg(R15 (PC), 0x20000288)
T32E4 9835:712.692 - 0.018ms returns 0
T32E4 9835:712.706 JLINK_WriteReg(XPSR, 0x01000000)
T32E4 9835:712.719 - 0.019ms returns 0
T32E4 9835:712.734 JLINK_WriteReg(MSP, 0x20002000)
T32E4 9835:712.746 - 0.018ms returns 0
T32E4 9835:712.760 JLINK_WriteReg(PSP, 0x20002000)
T32E4 9835:712.772 - 0.018ms returns 0
T32E4 9835:712.786 JLINK_WriteReg(CFBP, 0x00000000)
T32E4 9835:712.799 - 0.018ms returns 0
T32E4 9835:712.813 JLINK_SetBPEx(Addr = 0x20000000, Type = 0xFFFFFFF2)
T32E4 9835:712.831 - 0.024ms returns 0x00000005
T32E4 9835:712.846 JLINK_Go()
T32E4 9835:712.877   CPU_ReadMem(4 bytes @ 0xE0001000)
T32E4 9835:722.429 - 9.616ms
T32E4 9835:722.487 JLINK_IsHalted()
T32E4 9835:732.028   CPU_ReadMem(2 bytes @ 0x20000000)
T32E4 9835:733.300 - 10.867ms returns TRUE
T32E4 9835:733.380 JLINK_ReadReg(R15 (PC))
T32E4 9835:733.401 - 0.027ms returns 0x20000000
T32E4 9835:733.417 JLINK_ClrBPEx(BPHandle = 0x00000005)
T32E4 9835:733.431 - 0.028ms returns 0x00
T32E4 9835:733.458 JLINK_ReadReg(R0)
T32E4 9835:733.472 - 0.020ms returns 0x00000000
T32E4 9835:734.464 JLINK_HasError()
T32E4 9835:734.501 JLINK_WriteReg(R0, 0x0003C000)
T32E4 9835:734.518 - 0.023ms returns 0
T32E4 9835:734.533 JLINK_WriteReg(R1, 0x00001000)
T32E4 9835:734.545 - 0.018ms returns 0
T32E4 9835:734.560 JLINK_WriteReg(R2, 0x000000FF)
T32E4 9835:734.582 - 0.028ms returns 0
T32E4 9835:734.597 JLINK_WriteReg(R3, 0x00000000)
T32E4 9835:734.609 - 0.018ms returns 0
T32E4 9835:734.623 JLINK_WriteReg(R4, 0x00000000)
T32E4 9835:734.636 - 0.018ms returns 0
T32E4 9835:734.650 JLINK_WriteReg(R5, 0x00000000)
T32E4 9835:734.662 - 0.018ms returns 0
T32E4 9835:734.677 JLINK_WriteReg(R6, 0x00000000)
T32E4 9835:734.688 - 0.017ms returns 0
T32E4 9835:734.703 JLINK_WriteReg(R7, 0x00000000)
T32E4 9835:734.715 - 0.018ms returns 0
T32E4 9835:734.729 JLINK_WriteReg(R8, 0x00000000)
T32E4 9835:734.742 - 0.026ms returns 0
T32E4 9835:734.764 JLINK_WriteReg(R9, 0x200005B4)
T32E4 9835:734.777 - 0.018ms returns 0
T32E4 9835:734.792 JLINK_WriteReg(R10, 0x00000000)
T32E4 9835:734.807 - 0.046ms returns 0
T32E4 9835:734.847 JLINK_WriteReg(R11, 0x00000000)
T32E4 9835:734.860 - 0.018ms returns 0
T32E4 9835:734.874 JLINK_WriteReg(R12, 0x00000000)
T32E4 9835:734.887 - 0.018ms returns 0
T32E4 9835:734.901 JLINK_WriteReg(R13 (SP), 0x20002000)
T32E4 9835:734.915 - 0.020ms returns 0
T32E4 9835:734.929 JLINK_WriteReg(R14, 0x20000001)
T32E4 9835:734.941 - 0.018ms returns 0
T32E4 9835:734.955 JLINK_WriteReg(R15 (PC), 0x20000288)
T32E4 9835:734.968 - 0.018ms returns 0
T32E4 9835:734.982 JLINK_WriteReg(XPSR, 0x01000000)
T32E4 9835:734.994 - 0.018ms returns 0
T32E4 9835:735.008 JLINK_WriteReg(MSP, 0x20002000)
T32E4 9835:735.021 - 0.018ms returns 0
T32E4 9835:735.035 JLINK_WriteReg(PSP, 0x20002000)
T32E4 9835:735.047 - 0.018ms returns 0
T32E4 9835:735.085 JLINK_WriteReg(CFBP, 0x00000000)
T32E4 9835:735.097 - 0.018ms returns 0
T32E4 9835:735.112 JLINK_SetBPEx(Addr = 0x20000000, Type = 0xFFFFFFF2)
T32E4 9835:735.128 - 0.021ms returns 0x00000006
T32E4 9835:735.142 JLINK_Go()
T32E4 9835:735.171   CPU_ReadMem(4 bytes @ 0xE0001000)
T32E4 9835:744.857 - 9.769ms
T32E4 9835:744.947 JLINK_IsHalted()
T32E4 9835:753.909   CPU_ReadMem(2 bytes @ 0x20000000)
T32E4 9835:755.155 - 10.233ms returns TRUE
T32E4 9835:755.197 JLINK_ReadReg(R15 (PC))
T32E4 9835:755.217 - 0.025ms returns 0x20000000
T32E4 9835:755.232 JLINK_ClrBPEx(BPHandle = 0x00000006)
T32E4 9835:755.246 - 0.020ms returns 0x00
T32E4 9835:755.261 JLINK_ReadReg(R0)
T32E4 9835:755.274 - 0.018ms returns 0x00000000
T32E4 9835:756.170 JLINK_HasError()
T32E4 9835:756.197 JLINK_WriteReg(R0, 0x0003D000)
T32E4 9835:756.212 - 0.021ms returns 0
T32E4 9835:756.226 JLINK_WriteReg(R1, 0x00001000)
T32E4 9835:756.239 - 0.018ms returns 0
T32E4 9835:756.253 JLINK_WriteReg(R2, 0x000000FF)
T32E4 9835:756.266 - 0.018ms returns 0
T32E4 9835:756.280 JLINK_WriteReg(R3, 0x00000000)
T32E4 9835:756.292 - 0.017ms returns 0
T32E4 9835:756.306 JLINK_WriteReg(R4, 0x00000000)
T32E4 9835:756.319 - 0.018ms returns 0
T32E4 9835:756.333 JLINK_WriteReg(R5, 0x00000000)
T32E4 9835:756.346 - 0.018ms returns 0
T32E4 9835:756.360 JLINK_WriteReg(R6, 0x00000000)
T32E4 9835:756.372 - 0.018ms returns 0
T32E4 9835:756.386 JLINK_WriteReg(R7, 0x00000000)
T32E4 9835:756.398 - 0.018ms returns 0
T32E4 9835:756.413 JLINK_WriteReg(R8, 0x00000000)
T32E4 9835:756.426 - 0.018ms returns 0
T32E4 9835:756.440 JLINK_WriteReg(R9, 0x200005B4)
T32E4 9835:756.452 - 0.018ms returns 0
T32E4 9835:756.466 JLINK_WriteReg(R10, 0x00000000)
T32E4 9835:756.479 - 0.018ms returns 0
T32E4 9835:756.493 JLINK_WriteReg(R11, 0x00000000)
T32E4 9835:756.505 - 0.017ms returns 0
T32E4 9835:756.528 JLINK_WriteReg(R12, 0x00000000)
T32E4 9835:756.540 - 0.018ms returns 0
T32E4 9835:756.554 JLINK_WriteReg(R13 (SP), 0x20002000)
T32E4 9835:756.568 - 0.019ms returns 0
T32E4 9835:756.582 JLINK_WriteReg(R14, 0x20000001)
T32E4 9835:756.595 - 0.018ms returns 0
T32E4 9835:756.609 JLINK_WriteReg(R15 (PC), 0x20000288)
T32E4 9835:756.621 - 0.018ms returns 0
T32E4 9835:756.636 JLINK_WriteReg(XPSR, 0x01000000)
T32E4 9835:756.648 - 0.018ms returns 0
T32E4 9835:756.662 JLINK_WriteReg(MSP, 0x20002000)
T32E4 9835:756.675 - 0.018ms returns 0
T32E4 9835:756.689 JLINK_WriteReg(PSP, 0x20002000)
T32E4 9835:756.701 - 0.018ms returns 0
T32E4 9835:756.716 JLINK_WriteReg(CFBP, 0x00000000)
T32E4 9835:756.740 - 0.031ms returns 0
T32E4 9835:756.756 JLINK_SetBPEx(Addr = 0x20000000, Type = 0xFFFFFFF2)
T32E4 9835:756.770 - 0.020ms returns 0x00000007
T32E4 9835:756.785 JLINK_Go()
T32E4 9835:756.813   CPU_ReadMem(4 bytes @ 0xE0001000)
T32E4 9835:765.851 - 9.088ms
T32E4 9835:765.892 JLINK_IsHalted()
T32E4 9835:774.799   CPU_ReadMem(2 bytes @ 0x20000000)
T32E4 9835:776.016 - 10.157ms returns TRUE
T32E4 9835:776.075 JLINK_ReadReg(R15 (PC))
T32E4 9835:776.096 - 0.027ms returns 0x20000000
T32E4 9835:776.112 JLINK_ClrBPEx(BPHandle = 0x00000007)
T32E4 9835:776.126 - 0.020ms returns 0x00
T32E4 9835:776.144 JLINK_ReadReg(R0)
T32E4 9835:776.156 - 0.019ms returns 0x00000000
T32E4 9835:776.887 JLINK_HasError()
T32E4 9835:776.922 JLINK_WriteReg(R0, 0x00000001)
T32E4 9835:776.940 - 0.023ms returns 0
T32E4 9835:776.954 JLINK_WriteReg(R1, 0x00001000)
T32E4 9835:776.966 - 0.018ms returns 0
T32E4 9835:776.981 JLINK_WriteReg(R2, 0x000000FF)
T32E4 9835:776.994 - 0.018ms returns 0
T32E4 9835:777.008 JLINK_WriteReg(R3, 0x00000000)
T32E4 9835:777.021 - 0.018ms returns 0
T32E4 9835:777.035 JLINK_WriteReg(R4, 0x00000000)
T32E4 9835:777.047 - 0.018ms returns 0
T32E4 9835:777.062 JLINK_WriteReg(R5, 0x00000000)
T32E4 9835:777.073 - 0.018ms returns 0
T32E4 9835:777.088 JLINK_WriteReg(R6, 0x00000000)
T32E4 9835:777.101 - 0.018ms returns 0
T32E4 9835:777.114 JLINK_WriteReg(R7, 0x00000000)
T32E4 9835:777.127 - 0.018ms returns 0
T32E4 9835:777.141 JLINK_WriteReg(R8, 0x00000000)
T32E4 9835:777.153 - 0.018ms returns 0
T32E4 9835:777.167 JLINK_WriteReg(R9, 0x200005B4)
T32E4 9835:777.201 - 0.040ms returns 0
T32E4 9835:777.216 JLINK_WriteReg(R10, 0x00000000)
T32E4 9835:777.229 - 0.018ms returns 0
T32E4 9835:777.243 JLINK_WriteReg(R11, 0x00000000)
T32E4 9835:777.255 - 0.018ms returns 0
T32E4 9835:777.268 JLINK_WriteReg(R12, 0x00000000)
T32E4 9835:777.281 - 0.018ms returns 0
T32E4 9835:777.295 JLINK_WriteReg(R13 (SP), 0x20002000)
T32E4 9835:777.308 - 0.019ms returns 0
T32E4 9835:777.322 JLINK_WriteReg(R14, 0x20000001)
T32E4 9835:777.335 - 0.018ms returns 0
T32E4 9835:777.349 JLINK_WriteReg(R15 (PC), 0x20000060)
T32E4 9835:777.362 - 0.019ms returns 0
T32E4 9835:777.376 JLINK_WriteReg(XPSR, 0x01000000)
T32E4 9835:777.389 - 0.018ms returns 0
T32E4 9835:777.403 JLINK_WriteReg(MSP, 0x20002000)
T32E4 9835:777.415 - 0.018ms returns 0
T32E4 9835:777.429 JLINK_WriteReg(PSP, 0x20002000)
T32E4 9835:777.442 - 0.018ms returns 0
T32E4 9835:777.456 JLINK_WriteReg(CFBP, 0x00000000)
T32E4 9835:777.477 - 0.027ms returns 0
T32E4 9835:777.492 JLINK_SetBPEx(Addr = 0x20000000, Type = 0xFFFFFFF2)
T32E4 9835:777.506 - 0.020ms returns 0x00000008
T32E4 9835:777.521 JLINK_Go()
T32E4 9835:777.551   CPU_ReadMem(4 bytes @ 0xE0001000)
T32E4 9835:786.892 - 9.406ms
T32E4 9835:786.948 JLINK_IsHalted()
T32E4 9835:796.113   CPU_ReadMem(2 bytes @ 0x20000000)
T32E4 9835:797.358 - 10.449ms returns TRUE
T32E4 9835:797.414 JLINK_ReadReg(R15 (PC))
T32E4 9835:797.432 - 0.023ms returns 0x20000000
T32E4 9835:797.446 JLINK_ClrBPEx(BPHandle = 0x00000008)
T32E4 9835:797.458 - 0.017ms returns 0x00
T32E4 9835:797.471 JLINK_ReadReg(R0)
T32E4 9835:797.482 - 0.016ms returns 0x00000000
T32E4 9835:798.469 JLINK_WriteMem(0x20000000, 0x504 Bytes, ...)
T32E4 9835:798.486   Data:  00 BE 0A E0 0D 78 2D 06 68 40 08 24 40 00 00 D3 ...
T32E4 9835:798.515   CPU_WriteMem(1284 bytes @ 0x20000000)
T32E4 9835:843.876 - 45.442ms returns 0x504
T32E4 9835:844.100 JLINK_HasError()
T32E4 9835:844.136 JLINK_WriteReg(R0, 0x10001000)
T32E4 9835:844.157 - 0.026ms returns 0
T32E4 9835:844.172 JLINK_WriteReg(R1, 0x03D09000)
T32E4 9835:844.185 - 0.018ms returns 0
T32E4 9835:844.199 JLINK_WriteReg(R2, 0x00000001)
T32E4 9835:844.212 - 0.018ms returns 0
T32E4 9835:844.226 JLINK_WriteReg(R3, 0x00000000)
T32E4 9835:844.239 - 0.018ms returns 0
T32E4 9835:844.253 JLINK_WriteReg(R4, 0x00000000)
T32E4 9835:844.265 - 0.018ms returns 0
T32E4 9835:844.279 JLINK_WriteReg(R5, 0x00000000)
T32E4 9835:844.292 - 0.018ms returns 0
T32E4 9835:844.389 JLINK_WriteReg(R6, 0x00000000)
T32E4 9835:844.407 - 0.024ms returns 0
T32E4 9835:844.423 JLINK_WriteReg(R7, 0x00000000)
T32E4 9835:844.441 - 0.024ms returns 0
T32E4 9835:844.456 JLINK_WriteReg(R8, 0x00000000)
T32E4 9835:844.469 - 0.018ms returns 0
T32E4 9835:844.483 JLINK_WriteReg(R9, 0x20000500)
T32E4 9835:844.496 - 0.019ms returns 0
T32E4 9835:844.511 JLINK_WriteReg(R10, 0x00000000)
T32E4 9835:844.523 - 0.017ms returns 0
T32E4 9835:844.537 JLINK_WriteReg(R11, 0x00000000)
T32E4 9835:844.550 - 0.018ms returns 0
T32E4 9835:844.565 JLINK_WriteReg(R12, 0x00000000)
T32E4 9835:844.577 - 0.018ms returns 0
T32E4 9835:844.591 JLINK_WriteReg(R13 (SP), 0x20002000)
T32E4 9835:844.605 - 0.020ms returns 0
T32E4 9835:844.619 JLINK_WriteReg(R14, 0x20000001)
T32E4 9835:844.632 - 0.018ms returns 0
T32E4 9835:844.646 JLINK_WriteReg(R15 (PC), 0x20000020)
T32E4 9835:844.659 - 0.018ms returns 0
T32E4 9835:844.673 JLINK_WriteReg(XPSR, 0x01000000)
T32E4 9835:844.685 - 0.018ms returns 0
T32E4 9835:844.699 JLINK_WriteReg(MSP, 0x20002000)
T32E4 9835:844.712 - 0.018ms returns 0
T32E4 9835:844.726 JLINK_WriteReg(PSP, 0x20002000)
T32E4 9835:844.738 - 0.017ms returns 0
T32E4 9835:844.752 JLINK_WriteReg(CFBP, 0x00000000)
T32E4 9835:844.765 - 0.018ms returns 0
T32E4 9835:844.780 JLINK_SetBPEx(Addr = 0x20000000, Type = 0xFFFFFFF2)
T32E4 9835:844.805   CPU_ReadMem(2 bytes @ 0x20000000)
T32E4 9835:846.100 - 1.355ms returns 0x00000009
T32E4 9835:846.154 JLINK_Go()
T32E4 9835:846.178   CPU_WriteMem(2 bytes @ 0x20000000)
T32E4 9835:847.603   CPU_ReadMem(4 bytes @ 0xE0001000)
T32E4 9835:856.818 - 10.718ms
T32E4 9835:856.908 JLINK_IsHalted()
T32E4 9835:866.291   CPU_ReadMem(2 bytes @ 0x20000000)
T32E4 9835:867.460 - 10.586ms returns TRUE
T32E4 9835:867.516 JLINK_ReadReg(R15 (PC))
T32E4 9835:867.540 - 0.030ms returns 0x20000000
T32E4 9835:867.556 JLINK_ClrBPEx(BPHandle = 0x00000009)
T32E4 9835:867.570 - 0.020ms returns 0x00
T32E4 9835:867.586 JLINK_ReadReg(R0)
T32E4 9835:867.598 - 0.018ms returns 0x00000000
T32E4 9835:868.174 JLINK_HasError()
T32E4 9835:868.208 JLINK_WriteReg(R0, 0x10001000)
T32E4 9835:868.225 - 0.023ms returns 0
T32E4 9835:868.240 JLINK_WriteReg(R1, 0x00001000)
T32E4 9835:868.252 - 0.018ms returns 0
T32E4 9835:868.266 JLINK_WriteReg(R2, 0x000000FF)
T32E4 9835:868.279 - 0.018ms returns 0
T32E4 9835:868.293 JLINK_WriteReg(R3, 0x00000000)
T32E4 9835:868.305 - 0.018ms returns 0
T32E4 9835:868.319 JLINK_WriteReg(R4, 0x00000000)
T32E4 9835:868.334 - 0.021ms returns 0
T32E4 9835:868.349 JLINK_WriteReg(R5, 0x00000000)
T32E4 9835:868.361 - 0.017ms returns 0
T32E4 9835:868.375 JLINK_WriteReg(R6, 0x00000000)
T32E4 9835:868.387 - 0.022ms returns 0
T32E4 9835:868.406 JLINK_WriteReg(R7, 0x00000000)
T32E4 9835:868.419 - 0.020ms returns 0
T32E4 9835:868.435 JLINK_WriteReg(R8, 0x00000000)
T32E4 9835:868.449 - 0.021ms returns 0
T32E4 9835:868.466 JLINK_WriteReg(R9, 0x20000500)
T32E4 9835:868.480 - 0.022ms returns 0
T32E4 9835:868.497 JLINK_WriteReg(R10, 0x00000000)
T32E4 9835:868.511 - 0.021ms returns 0
T32E4 9835:868.526 JLINK_WriteReg(R11, 0x00000000)
T32E4 9835:868.539 - 0.019ms returns 0
T32E4 9835:868.553 JLINK_WriteReg(R12, 0x00000000)
T32E4 9835:868.565 - 0.018ms returns 0
T32E4 9835:868.580 JLINK_WriteReg(R13 (SP), 0x20002000)
T32E4 9835:868.594 - 0.019ms returns 0
T32E4 9835:868.607 JLINK_WriteReg(R14, 0x20000001)
T32E4 9835:868.620 - 0.018ms returns 0
T32E4 9835:868.634 JLINK_WriteReg(R15 (PC), 0x20000108)
T32E4 9835:868.646 - 0.018ms returns 0
T32E4 9835:868.660 JLINK_WriteReg(XPSR, 0x01000000)
T32E4 9835:868.673 - 0.018ms returns 0
T32E4 9835:868.687 JLINK_WriteReg(MSP, 0x20002000)
T32E4 9835:868.699 - 0.018ms returns 0
T32E4 9835:868.714 JLINK_WriteReg(PSP, 0x20002000)
T32E4 9835:868.726 - 0.018ms returns 0
T32E4 9835:868.740 JLINK_WriteReg(CFBP, 0x00000000)
T32E4 9835:868.752 - 0.018ms returns 0
T32E4 9835:868.767 JLINK_SetBPEx(Addr = 0x20000000, Type = 0xFFFFFFF2)
T32E4 9835:868.782 - 0.020ms returns 0x0000000A
T32E4 9835:868.797 JLINK_Go()
T32E4 9835:868.838   CPU_ReadMem(4 bytes @ 0xE0001000)
T32E4 9835:878.347 - 9.616ms
T32E4 9835:878.446 JLINK_IsHalted()
T32E4 9835:887.496   CPU_ReadMem(2 bytes @ 0x20000000)
T32E4 9835:888.694 - 10.275ms returns TRUE
T32E4 9835:888.744 JLINK_ReadReg(R15 (PC))
T32E4 9835:888.764 - 0.026ms returns 0x20000000
T32E4 9835:888.780 JLINK_ClrBPEx(BPHandle = 0x0000000A)
T32E4 9835:888.795 - 0.021ms returns 0x00
T32E4 9835:888.812 JLINK_ReadReg(R0)
T32E4 9835:888.825 - 0.019ms returns 0x00000000
T32E4 9835:889.544 JLINK_HasError()
T32E4 9835:889.582 JLINK_WriteReg(R0, 0x00000001)
T32E4 9835:889.600 - 0.023ms returns 0
T32E4 9835:889.615 JLINK_WriteReg(R1, 0x00001000)
T32E4 9835:889.627 - 0.018ms returns 0
T32E4 9835:889.642 JLINK_WriteReg(R2, 0x000000FF)
T32E4 9835:889.654 - 0.018ms returns 0
T32E4 9835:889.669 JLINK_WriteReg(R3, 0x00000000)
T32E4 9835:889.681 - 0.017ms returns 0
T32E4 9835:889.695 JLINK_WriteReg(R4, 0x00000000)
T32E4 9835:889.707 - 0.018ms returns 0
T32E4 9835:889.722 JLINK_WriteReg(R5, 0x00000000)
T32E4 9835:889.734 - 0.018ms returns 0
T32E4 9835:889.748 JLINK_WriteReg(R6, 0x00000000)
T32E4 9835:889.760 - 0.018ms returns 0
T32E4 9835:889.775 JLINK_WriteReg(R7, 0x00000000)
T32E4 9835:889.787 - 0.018ms returns 0
T32E4 9835:889.801 JLINK_WriteReg(R8, 0x00000000)
T32E4 9835:889.814 - 0.018ms returns 0
T32E4 9835:889.828 JLINK_WriteReg(R9, 0x20000500)
T32E4 9835:889.840 - 0.018ms returns 0
T32E4 9835:889.854 JLINK_WriteReg(R10, 0x00000000)
T32E4 9835:889.866 - 0.018ms returns 0
T32E4 9835:889.880 JLINK_WriteReg(R11, 0x00000000)
T32E4 9835:889.893 - 0.018ms returns 0
T32E4 9835:889.907 JLINK_WriteReg(R12, 0x00000000)
T32E4 9835:889.919 - 0.018ms returns 0
T32E4 9835:889.933 JLINK_WriteReg(R13 (SP), 0x20002000)
T32E4 9835:889.947 - 0.019ms returns 0
T32E4 9835:889.961 JLINK_WriteReg(R14, 0x20000001)
T32E4 9835:889.973 - 0.017ms returns 0
T32E4 9835:889.987 JLINK_WriteReg(R15 (PC), 0x20000054)
T32E4 9835:889.999 - 0.018ms returns 0
T32E4 9835:890.013 JLINK_WriteReg(XPSR, 0x01000000)
T32E4 9835:890.026 - 0.018ms returns 0
T32E4 9835:890.040 JLINK_WriteReg(MSP, 0x20002000)
T32E4 9835:890.053 - 0.018ms returns 0
T32E4 9835:890.067 JLINK_WriteReg(PSP, 0x20002000)
T32E4 9835:890.079 - 0.018ms returns 0
T32E4 9835:890.093 JLINK_WriteReg(CFBP, 0x00000000)
T32E4 9835:890.106 - 0.018ms returns 0
T32E4 9835:890.125 JLINK_SetBPEx(Addr = 0x20000000, Type = 0xFFFFFFF2)
T32E4 9835:890.148 - 0.029ms returns 0x0000000B
T32E4 9835:890.163 JLINK_Go()
T32E4 9835:890.194   CPU_ReadMem(4 bytes @ 0xE0001000)
T32E4 9835:899.595 - 9.464ms
T32E4 9835:899.646 JLINK_IsHalted()
T32E4 9835:908.767   CPU_ReadMem(2 bytes @ 0x20000000)
T32E4 9835:909.977 - 10.352ms returns TRUE
T32E4 9835:910.014 JLINK_ReadReg(R15 (PC))
T32E4 9835:910.035 - 0.026ms returns 0x20000000
T32E4 9835:910.050 JLINK_ClrBPEx(BPHandle = 0x0000000B)
T32E4 9835:910.063 - 0.018ms returns 0x00
T32E4 9835:910.078 JLINK_ReadReg(R0)
T32E4 9835:910.114 - 0.041ms returns 0x00000000
T32E4 9835:968.917 JLINK_WriteMem(0x20000000, 0x5B8 Bytes, ...)
T32E4 9835:968.934   Data:  00 BE 0A E0 0D 78 2D 06 68 40 08 24 40 00 00 D3 ...
T32E4 9835:968.954   CPU_WriteMem(1464 bytes @ 0x20000000)
T32E4 9836:020.197 - 51.312ms returns 0x5B8
T32E4 9836:020.423 JLINK_HasError()
T32E4 9836:020.458 JLINK_WriteReg(R0, 0x00000000)
T32E4 9836:020.478 - 0.025ms returns 0
T32E4 9836:020.492 JLINK_WriteReg(R1, 0x03D09000)
T32E4 9836:020.504 - 0.017ms returns 0
T32E4 9836:020.517 JLINK_WriteReg(R2, 0x00000002)
T32E4 9836:020.528 - 0.016ms returns 0
T32E4 9836:020.542 JLINK_WriteReg(R3, 0x00000000)
T32E4 9836:020.553 - 0.017ms returns 0
T32E4 9836:020.566 JLINK_WriteReg(R4, 0x00000000)
T32E4 9836:020.578 - 0.017ms returns 0
T32E4 9836:020.591 JLINK_WriteReg(R5, 0x00000000)
T32E4 9836:020.603 - 0.017ms returns 0
T32E4 9836:020.616 JLINK_WriteReg(R6, 0x00000000)
T32E4 9836:020.627 - 0.016ms returns 0
T32E4 9836:020.640 JLINK_WriteReg(R7, 0x00000000)
T32E4 9836:020.652 - 0.016ms returns 0
T32E4 9836:020.665 JLINK_WriteReg(R8, 0x00000000)
T32E4 9836:020.682 - 0.027ms returns 0
T32E4 9836:020.700 JLINK_WriteReg(R9, 0x200005B4)
T32E4 9836:020.720 - 0.025ms returns 0
T32E4 9836:020.734 JLINK_WriteReg(R10, 0x00000000)
T32E4 9836:020.745 - 0.016ms returns 0
T32E4 9836:020.758 JLINK_WriteReg(R11, 0x00000000)
T32E4 9836:020.770 - 0.016ms returns 0
T32E4 9836:020.783 JLINK_WriteReg(R12, 0x00000000)
T32E4 9836:020.794 - 0.017ms returns 0
T32E4 9836:020.808 JLINK_WriteReg(R13 (SP), 0x20002000)
T32E4 9836:020.821 - 0.018ms returns 0
T32E4 9836:020.834 JLINK_WriteReg(R14, 0x20000001)
T32E4 9836:020.845 - 0.017ms returns 0
T32E4 9836:020.859 JLINK_WriteReg(R15 (PC), 0x20000020)
T32E4 9836:020.871 - 0.017ms returns 0
T32E4 9836:020.883 JLINK_WriteReg(XPSR, 0x01000000)
T32E4 9836:020.895 - 0.017ms returns 0
T32E4 9836:020.908 JLINK_WriteReg(MSP, 0x20002000)
T32E4 9836:020.920 - 0.017ms returns 0
T32E4 9836:020.933 JLINK_WriteReg(PSP, 0x20002000)
T32E4 9836:020.944 - 0.016ms returns 0
T32E4 9836:020.957 JLINK_WriteReg(CFBP, 0x00000000)
T32E4 9836:020.969 - 0.018ms returns 0
T32E4 9836:020.991 JLINK_SetBPEx(Addr = 0x20000000, Type = 0xFFFFFFF2)
T32E4 9836:021.063   CPU_ReadMem(2 bytes @ 0x20000000)
T32E4 9836:022.255 - 1.298ms returns 0x0000000C
T32E4 9836:022.309 JLINK_Go()
T32E4 9836:022.341   CPU_WriteMem(2 bytes @ 0x20000000)
T32E4 9836:023.650   CPU_ReadMem(4 bytes @ 0xE0001000)
T32E4 9836:033.000 - 10.728ms
T32E4 9836:033.059 JLINK_IsHalted()
T32E4 9836:042.066   CPU_ReadMem(2 bytes @ 0x20000000)
T32E4 9836:043.252 - 10.216ms returns TRUE
T32E4 9836:043.293 JLINK_ReadReg(R15 (PC))
T32E4 9836:043.314 - 0.026ms returns 0x20000000
T32E4 9836:043.329 JLINK_ClrBPEx(BPHandle = 0x0000000C)
T32E4 9836:043.343 - 0.020ms returns 0x00
T32E4 9836:043.358 JLINK_ReadReg(R0)
T32E4 9836:043.371 - 0.019ms returns 0x00000000
T32E4 9836:043.995 JLINK_WriteMem(0x200005C8, 0x238 Bytes, ...)
T32E4 9836:044.024   Data:  E0 58 00 20 D5 83 03 00 DD 83 03 00 DF 83 03 00 ...
T32E4 9836:044.064   CPU_WriteMem(568 bytes @ 0x200005C8)
T32E4 9836:064.258 - 20.318ms returns 0x238
T32E4 9836:064.339 JLINK_WriteMem(0x20000800, 0x400 Bytes, ...)
T32E4 9836:064.355   Data:  02 03 40 E8 01 34 00 2C E9 D1 4F F0 01 00 0A 60 ...
T32E4 9836:064.416   CPU_WriteMem(1024 bytes @ 0x20000800)
T32E4 9836:099.775 - 35.471ms returns 0x400
T32E4 9836:099.837 JLINK_WriteMem(0x20000C00, 0x400 Bytes, ...)
T32E4 9836:099.854   Data:  2D E9 F0 47 93 F9 00 60 92 B0 04 46 89 46 10 46 ...
T32E4 9836:099.896   CPU_WriteMem(1024 bytes @ 0x20000C00)
T32E4 9836:135.075 - 35.273ms returns 0x400
T32E4 9836:135.135 JLINK_WriteMem(0x20001000, 0x400 Bytes, ...)
T32E4 9836:135.150   Data:  26 A9 22 46 00 F0 50 F8 01 28 05 D0 26 A8 01 46 ...
T32E4 9836:135.192   CPU_WriteMem(1024 bytes @ 0x20001000)
T32E4 9836:170.490 - 35.390ms returns 0x400
T32E4 9836:170.550 JLINK_WriteMem(0x20001400, 0x1C8 Bytes, ...)
T32E4 9836:170.567   Data:  1D 46 23 46 06 46 00 F0 17 FB 38 B1 30 46 31 46 ...
T32E4 9836:170.605   CPU_WriteMem(456 bytes @ 0x20001400)
T32E4 9836:187.215 - 16.698ms returns 0x1C8
T32E4 9836:187.276 JLINK_HasError()
T32E4 9836:187.322 JLINK_WriteReg(R0, 0x00038000)
T32E4 9836:187.352 - 0.036ms returns 0
T32E4 9836:187.370 JLINK_WriteReg(R1, 0x00001000)
T32E4 9836:187.383 - 0.018ms returns 0
T32E4 9836:187.399 JLINK_WriteReg(R2, 0x200005C8)
T32E4 9836:187.412 - 0.019ms returns 0
T32E4 9836:187.435 JLINK_WriteReg(R3, 0x00000000)
T32E4 9836:187.452 - 0.023ms returns 0
T32E4 9836:187.467 JLINK_WriteReg(R4, 0x00000000)
T32E4 9836:187.481 - 0.020ms returns 0
T32E4 9836:187.498 JLINK_WriteReg(R5, 0x00000000)
T32E4 9836:187.511 - 0.019ms returns 0
T32E4 9836:187.526 JLINK_WriteReg(R6, 0x00000000)
T32E4 9836:187.538 - 0.018ms returns 0
T32E4 9836:187.553 JLINK_WriteReg(R7, 0x00000000)
T32E4 9836:187.566 - 0.018ms returns 0
T32E4 9836:187.581 JLINK_WriteReg(R8, 0x00000000)
T32E4 9836:187.595 - 0.019ms returns 0
T32E4 9836:187.610 JLINK_WriteReg(R9, 0x200005B4)
T32E4 9836:187.622 - 0.018ms returns 0
T32E4 9836:187.637 JLINK_WriteReg(R10, 0x00000000)
T32E4 9836:187.655 - 0.029ms returns 0
T32E4 9836:187.677 JLINK_WriteReg(R11, 0x00000000)
T32E4 9836:187.689 - 0.018ms returns 0
T32E4 9836:187.705 JLINK_WriteReg(R12, 0x00000000)
T32E4 9836:187.718 - 0.018ms returns 0
T32E4 9836:187.732 JLINK_WriteReg(R13 (SP), 0x20002000)
T32E4 9836:187.746 - 0.020ms returns 0
T32E4 9836:187.879 JLINK_WriteReg(R14, 0x20000001)
T32E4 9836:187.914 - 0.042ms returns 0
T32E4 9836:187.931 JLINK_WriteReg(R15 (PC), 0x20000154)
T32E4 9836:187.944 - 0.019ms returns 0
T32E4 9836:187.958 JLINK_WriteReg(XPSR, 0x01000000)
T32E4 9836:187.971 - 0.019ms returns 0
T32E4 9836:187.986 JLINK_WriteReg(MSP, 0x20002000)
T32E4 9836:187.998 - 0.018ms returns 0
T32E4 9836:188.013 JLINK_WriteReg(PSP, 0x20002000)
T32E4 9836:188.025 - 0.018ms returns 0
T32E4 9836:188.039 JLINK_WriteReg(CFBP, 0x00000000)
T32E4 9836:188.060 - 0.026ms returns 0
T32E4 9836:188.076 JLINK_SetBPEx(Addr = 0x20000000, Type = 0xFFFFFFF2)
T32E4 9836:188.092 - 0.022ms returns 0x0000000D
T32E4 9836:188.107 JLINK_Go()
T32E4 9836:188.136   CPU_ReadMem(4 bytes @ 0xE0001000)
T32E4 9836:197.658 - 9.584ms
T32E4 9836:197.709 JLINK_IsHalted()
T32E4 9836:198.878 - 1.203ms returns FALSE
T32E4 9836:198.931 JLINK_HasError()
T32E4 9836:218.385 JLINK_IsHalted()
T32E4 9836:219.387 - 1.006ms returns FALSE
T32E4 9836:219.398 JLINK_HasError()
T32E4 9836:221.326 JLINK_IsHalted()
T32E4 9836:222.421 - 1.152ms returns FALSE
T32E4 9836:222.489 JLINK_HasError()
T32E4 9836:224.362 JLINK_IsHalted()
T32E4 9836:225.403 - 1.044ms returns FALSE
T32E4 9836:225.412 JLINK_HasError()
T32E4 9836:227.330 JLINK_IsHalted()
T32E4 9836:228.409 - 1.105ms returns FALSE
T32E4 9836:228.447 JLINK_HasError()
T32E4 9836:230.303 JLINK_IsHalted()
T32E4 9836:231.345 - 1.057ms returns FALSE
T32E4 9836:231.369 JLINK_HasError()
T32E4 9836:234.310 JLINK_IsHalted()
T32E4 9836:235.396 - 1.108ms returns FALSE
T32E4 9836:235.430 JLINK_HasError()
T32E4 9836:237.462 JLINK_IsHalted()
T32E4 9836:238.554 - 1.128ms returns FALSE
T32E4 9836:238.617 JLINK_HasError()
T32E4 9836:240.347 JLINK_IsHalted()
T32E4 9836:241.588 - 1.263ms returns FALSE
T32E4 9836:241.620 JLINK_HasError()
T32E4 9836:243.238 JLINK_IsHalted()
T32E4 9836:252.146   CPU_ReadMem(2 bytes @ 0x20000000)
T32E4 9836:253.246 - 10.014ms returns TRUE
T32E4 9836:253.259 JLINK_ReadReg(R15 (PC))
T32E4 9836:253.266 - 0.009ms returns 0x20000000
T32E4 9836:253.272 JLINK_ClrBPEx(BPHandle = 0x0000000D)
T32E4 9836:253.276 - 0.006ms returns 0x00
T32E4 9836:253.282 JLINK_ReadReg(R0)
T32E4 9836:253.287 - 0.006ms returns 0x00000000
T32E4 9836:253.690 JLINK_WriteMem(0x200005C8, 0x238 Bytes, ...)
T32E4 9836:253.700   Data:  04 8B E4 FB 6E 78 52 F8 04 EB 50 F8 04 9B E4 FB ...
T32E4 9836:253.713   CPU_WriteMem(568 bytes @ 0x200005C8)
T32E4 9836:273.889 - 20.224ms returns 0x238
T32E4 9836:273.933 JLINK_WriteMem(0x20000800, 0x400 Bytes, ...)
T32E4 9836:273.944   Data:  A0 E8 80 01 EE FB 6A 45 4F F0 00 0A 4A F1 00 0A ...
T32E4 9836:273.970   CPU_WriteMem(1024 bytes @ 0x20000800)
T32E4 9836:309.147 - 35.253ms returns 0x400
T32E4 9836:309.214 JLINK_WriteMem(0x20000C00, 0x400 Bytes, ...)
T32E4 9836:309.231   Data:  E3 6A 05 93 63 6B 07 93 2D 1A 31 46 30 46 6A 46 ...
T32E4 9836:309.271   CPU_WriteMem(1024 bytes @ 0x20000C00)
T32E4 9836:344.400 - 35.222ms returns 0x400
T32E4 9836:344.460 JLINK_WriteMem(0x20001000, 0x400 Bytes, ...)
T32E4 9836:344.475   Data:  6A 1A 31 44 81 42 00 D1 00 22 08 23 00 F0 A2 FE ...
T32E4 9836:344.512   CPU_WriteMem(1024 bytes @ 0x20001000)
T32E4 9836:379.969 - 35.545ms returns 0x400
T32E4 9836:380.030 JLINK_WriteMem(0x20001400, 0x1C8 Bytes, ...)
T32E4 9836:380.046   Data:  E0 60 1E 48 00 F0 16 FE 00 20 00 90 01 F0 52 FA ...
T32E4 9836:380.085   CPU_WriteMem(456 bytes @ 0x20001400)
T32E4 9836:396.750 - 16.755ms returns 0x1C8
T32E4 9836:396.811 JLINK_HasError()
T32E4 9836:396.830 JLINK_WriteReg(R0, 0x00039000)
T32E4 9836:396.850 - 0.026ms returns 0
T32E4 9836:396.868 JLINK_WriteReg(R1, 0x00001000)
T32E4 9836:396.881 - 0.019ms returns 0
T32E4 9836:396.898 JLINK_WriteReg(R2, 0x200005C8)
T32E4 9836:396.942 - 0.050ms returns 0
T32E4 9836:396.958 JLINK_WriteReg(R3, 0x00000000)
T32E4 9836:396.970 - 0.018ms returns 0
T32E4 9836:396.987 JLINK_WriteReg(R4, 0x00000000)
T32E4 9836:397.008 - 0.027ms returns 0
T32E4 9836:397.024 JLINK_WriteReg(R5, 0x00000000)
T32E4 9836:397.037 - 0.018ms returns 0
T32E4 9836:397.052 JLINK_WriteReg(R6, 0x00000000)
T32E4 9836:397.064 - 0.018ms returns 0
T32E4 9836:397.079 JLINK_WriteReg(R7, 0x00000000)
T32E4 9836:397.091 - 0.018ms returns 0
T32E4 9836:397.107 JLINK_WriteReg(R8, 0x00000000)
T32E4 9836:397.120 - 0.018ms returns 0
T32E4 9836:397.134 JLINK_WriteReg(R9, 0x200005B4)
T32E4 9836:397.147 - 0.018ms returns 0
T32E4 9836:397.161 JLINK_WriteReg(R10, 0x00000000)
T32E4 9836:397.173 - 0.018ms returns 0
T32E4 9836:397.190 JLINK_WriteReg(R11, 0x00000000)
T32E4 9836:397.202 - 0.018ms returns 0
T32E4 9836:397.218 JLINK_WriteReg(R12, 0x00000000)
T32E4 9836:397.231 - 0.018ms returns 0
T32E4 9836:397.245 JLINK_WriteReg(R13 (SP), 0x20002000)
T32E4 9836:397.260 - 0.020ms returns 0
T32E4 9836:397.274 JLINK_WriteReg(R14, 0x20000001)
T32E4 9836:397.287 - 0.018ms returns 0
T32E4 9836:397.302 JLINK_WriteReg(R15 (PC), 0x20000154)
T32E4 9836:397.315 - 0.018ms returns 0
T32E4 9836:397.329 JLINK_WriteReg(XPSR, 0x01000000)
T32E4 9836:397.342 - 0.018ms returns 0
T32E4 9836:397.356 JLINK_WriteReg(MSP, 0x20002000)
T32E4 9836:397.368 - 0.018ms returns 0
T32E4 9836:397.384 JLINK_WriteReg(PSP, 0x20002000)
T32E4 9836:397.396 - 0.018ms returns 0
T32E4 9836:397.412 JLINK_WriteReg(CFBP, 0x00000000)
T32E4 9836:397.424 - 0.018ms returns 0
T32E4 9836:397.439 JLINK_SetBPEx(Addr = 0x20000000, Type = 0xFFFFFFF2)
T32E4 9836:397.454 - 0.021ms returns 0x0000000E
T32E4 9836:397.469 JLINK_Go()
T32E4 9836:397.498   CPU_ReadMem(4 bytes @ 0xE0001000)
T32E4 9836:407.372 - 9.936ms
